#, Frequency (Hz), Amplitude (Vpp), Gain (dB), Phase (°)
1,200000.0,0.1250,-0.35,157.61
2,204364.4,0.1250,-0.37,157.04
3,208824.1,0.1250,-0.38,156.47
4,213381.1,0.1250,-0.39,156.05
5,218037.5,0.1250,-0.41,155.56
6,222795.6,0.1250,-0.42,154.94
7,227657.4,0.1250,-0.44,154.46
8,232625.4,0.1250,-0.46,153.82
9,237701.8,0.1250,-0.47,153.25
10,242888.9,0.1250,-0.47,152.86
11,248189.3,0.1250,-0.50,152.18
12,253605.3,0.1250,-0.52,151.52
13,259139.5,0.1250,-0.52,151.05
14,264794.5,0.1250,-0.57,150.29
15,270572.9,0.1250,-0.58,149.68
16,276477.4,0.1250,-0.61,149.08
17,282510.7,0.1250,-0.62,148.33
18,288675.7,0.1250,-0.64,147.73
19,294975.2,0.1250,-0.65,147.08
20,301412.2,0.1250,-0.70,146.35
21,307989.6,0.1250,-0.71,145.63
22,314710.6,0.1250,-0.74,145.12
23,321578.3,0.1250,-0.76,144.41
24,328595.8,0.1250,-0.80,143.62
25,335766.5,0.1250,-0.80,142.82
26,343093.6,0.1250,-0.85,142.10
27,350580.7,0.1250,-0.91,141.45
28,358231.1,0.1250,-0.92,140.71
29,366048.5,0.1250,-0.93,139.80
30,374036.4,0.1250,-0.98,139.22
31,382198.7,0.1250,-1.00,138.45
32,390539.1,0.1250,-1.05,137.45
33,399061.5,0.1250,-1.09,136.65
34,407769.8,0.1250,-1.10,135.89
35,416668.3,0.1250,-1.13,135.04
36,425760.8,0.1250,-1.19,134.23
37,435051.9,0.1250,-1.22,133.25
38,444545.6,0.1250,-1.26,132.42
39,454246.5,0.1250,-1.29,131.43
40,464159.2,0.1250,-1.34,130.55
41,474288.1,0.1250,-1.39,129.66
42,484638.1,0.1250,-1.42,128.52
43,495213.9,0.1250,-1.45,127.67
44,506020.6,0.1250,-1.49,126.69
45,517063.0,0.1250,-1.56,125.81
46,528346.4,0.1250,-1.59,124.62
47,539876.1,0.1250,-1.64,123.63
48,551657.3,0.1250,-1.71,122.64
49,563695.7,0.1250,-1.75,121.58
50,575996.7,0.1250,-1.82,120.63
51,588566.2,0.1250,-1.84,119.49
52,601410.0,0.1250,-1.91,118.33
53,614534.0,0.1250,-1.93,117.11
54,627944.5,0.1250,-2.02,116.00
55,641647.5,0.1250,-2.01,114.91
56,655649.7,0.1250,-2.09,113.93
57,669957.3,0.1250,-2.16,112.78
58,684577.2,0.1250,-2.28,111.07
59,699516.2,0.1250,-2.34,109.98
60,714781.1,0.1250,-2.35,109.10
61,730379.2,0.1250,-2.43,107.89
62,746317.6,0.1250,-2.48,106.84
63,762603.8,0.1250,-2.57,105.24
64,779245.5,0.1250,-2.58,103.79
65,796250.3,0.1250,-2.66,102.65
66,813626.2,0.1250,-2.68,101.41
67,831381.2,0.1250,-2.82,99.82
68,849523.7,0.1250,-2.83,98.37
69,868062.2,0.1250,-2.90,97.61
70,887005.1,0.1250,-2.99,95.93
71,906361.5,0.1250,-3.06,94.59
72,926140.2,0.1250,-3.07,93.31
73,946350.6,0.1250,-3.09,91.83
74,967002.0,0.1250,-3.13,90.35
75,988104.0,0.1250,-3.20,88.76
76,1009666.6,0.1250,-3.33,87.14
77,1031699.6,0.1250,-3.29,86.10
78,1054213.5,0.1250,-3.32,84.37
79,1077218.7,0.1250,-3.40,82.92
80,1100725.9,0.1250,-3.52,80.84
81,1124746.1,0.1250,-3.50,79.13
82,1149290.5,0.1250,-3.62,77.34
83,1174370.4,0.1250,-3.58,75.51
84,1199997.7,0.1250,-3.70,73.76
85,1226184.2,0.1250,-3.72,71.57
86,1252942.2,0.1250,-3.77,70.69
87,1280284.1,0.1250,-3.80,68.70
88,1308222.6,0.1250,-3.79,67.02
89,1336770.8,0.1250,-3.92,63.78
90,1365942.0,0.1250,-3.99,62.53
91,1395749.8,0.1250,-3.96,60.41
92,1426208.0,0.1250,-4.05,58.43
93,1457330.9,0.1250,-4.13,55.45
94,1489133.0,0.1250,-4.14,54.23
95,1521629.0,0.1250,-4.14,51.29
96,1554834.2,0.1250,-4.15,48.27
97,1588764.0,0.1250,-4.28,46.41
98,1623434.3,0.1250,-4.26,44.24
99,1658861.1,0.1250,-4.20,41.52
100,1695061.0,0.1250,-4.33,38.00
101,1732050.8,0.1250,-4.33,36.12
102,1769847.9,0.1250,-4.64,33.29
103,1808469.7,0.1250,-4.56,31.54
104,1847934.4,0.1250,-4.44,27.57
105,1888260.3,0.1250,-4.44,25.27
106,1929466.1,0.1250,-4.40,21.72
107,1971571.2,0.1250,-4.66,18.96
108,2014595.1,0.1250,-4.37,15.24
109,2058557.9,0.1250,-4.57,12.53
110,2103480.0,0.1250,-4.66,8.62
111,2149382.4,0.1250,-4.69,4.28
112,2196286.5,0.1250,-4.75,0.52
113,2244214.2,0.1250,-4.73,-0.74
114,2293187.7,0.1250,-4.67,-6.86
115,2343230.0,0.1250,-4.87,-9.39
116,2394364.3,0.1250,-4.94,-12.70
117,2446614.4,0.1250,-4.71,-18.01
118,2500004.8,0.1250,-4.80,-21.42
119,2554560.2,0.1250,-4.89,-26.05
120,2610306.2,0.1250,-5.06,-30.73
121,2667268.6,0.1250,-4.51,-33.90
122,2725474.1,0.1250,-4.86,-39.04
123,2784949.8,0.1250,-4.76,-44.18
124,2845723.3,0.1250,-4.85,-49.06
125,2907823.1,0.1250,-5.12,-54.71
126,2971278.0,0.1250,-5.19,-57.34
127,3036117.6,0.1250,-5.14,-64.88
128,3102372.2,0.1250,-5.38,-70.69
129,3170072.6,0.1250,-4.70,-76.63
130,3239250.3,0.1250,-5.28,-80.26
131,3309937.7,0.1250,-5.73,-88.55
132,3382167.6,0.1250,-5.29,-94.21
133,3455973.7,0.1250,-5.08,-99.81
134,3531390.4,0.1250,-6.00,-108.35
135,3608452.9,0.1250,-5.32,-115.70
136,3687197.1,0.1250,-5.64,-122.44
137,3767659.6,0.1250,-5.90,-128.35
138,3849877.9,0.1250,-5.60,-136.87
139,3933890.5,0.1250,-5.46,-146.34
140,4019736.4,0.1250,-6.60,-152.09
141,4107455.6,0.1250,-6.15,-159.50
142,4197089.1,0.1250,-6.62,188.17
143,4288678.5,0.1250,-6.50,180.57
144,4382266.6,0.1250,-7.13,169.99
145,4477897.1,0.1250,-7.09,163.61
146,4575614.3,0.1250,-7.44,151.62
147,4675464.0,0.1250,-7.81,142.27
148,4777492.6,0.1250,-7.97,133.60
149,4881747.7,0.1250,-9.03,118.80
150,4988277.9,0.1250,-9.41,114.79
151,5097132.7,0.1250,-9.59,100.24
152,5208363.1,0.1250,-10.31,91.77
153,5322020.7,0.1250,-10.76,78.77
154,5438158.5,0.1250,-11.58,64.86
155,5556830.7,0.1250,-12.80,52.20
156,5678092.7,0.1250,-13.00,45.14
157,5802000.8,0.1250,-14.49,32.98
158,5928612.8,0.1250,-14.68,20.87
159,6057987.8,0.1250,-16.09,4.85
160,6190186.0,0.1250,-16.23,3.00
161,6325269.1,0.1250,-18.20,-6.39
162,6463300.0,0.1250,-21.87,-20.72
163,6604343.0,0.1250,-19.98,-47.04
164,6748463.8,0.1250,-23.51,-47.88
165,6895729.7,0.1250,-23.55,-59.86
166,7046209.3,0.1250,-26.40,-73.14
167,7199972.6,0.1250,-28.54,-74.01
168,7357091.4,0.1250,-28.17,-90.14
169,7517638.8,0.1250,-31.07,-100.67
170,7681689.8,0.1250,-32.30,-100.66
171,7849320.6,0.1250,-32.60,-115.76
172,8020609.6,0.1250,-33.93,-112.83
173,8195636.4,0.1250,-35.17,-127.23
174,8374482.7,0.1250,-36.00,-168.05
175,8557231.8,0.1250,-37.83,-157.12
176,8743968.8,0.1250,-50.42,-163.91
177,8934780.9,0.1250,-48.90,-132.94
178,9129756.9,0.1250,-46.92,131.73
179,9328987.7,0.1250,-40.82,-178.15
180,9532566.1,0.1250,-45.75,-169.68
181,9740587.1,0.1250,-49.80,-145.77
182,9953147.5,0.1250,-49.64,-93.45
183,10170346.4,0.1250,-46.55,103.67
184,10392285.1,0.1250,-48.97,-112.14
185,10619066.9,0.1250,-48.14,-32.60
186,10850797.6,0.1250,-53.55,-76.18
187,11087585.2,0.1250,-46.68,-59.62
188,11329540.0,0.1250,-49.18,58.01
189,11576774.7,0.1250,-56.49,-173.80
190,11829404.7,0.1250,-49.70,70.30
191,12087547.6,0.1250,-44.79,102.93
192,12351323.7,0.1250,-49.50,45.56
193,12620855.9,0.1250,-60.22,38.10
194,12896269.9,0.1250,-46.98,-87.42
195,13177694.1,0.1250,-55.63,91.17
196,13465259.5,0.1250,-55.87,92.20
197,13759100.2,0.1250,-47.40,-159.31
198,14059353.2,0.1250,-44.51,-137.01
199,14366158.3,0.1250,-54.71,47.93
200,14679658.5,0.1250,-62.50,77.64
201,15000000.0,0.1250,-56.94,82.36
